! Created with skrf 1.9.0 (http://scikit-rf.org).
# Hz S RI R 50.0 
!freq ReS11 ImS11 ReS21 ImS21 ReS12 ImS12 ReS22 ImS22
4000000000.0 0.9998864432385716 -0.01506948697494472 1.5940946572015804e-06 0.000105770929005415 1.5940946572015796e-06 0.00010577092900541497 0.9998864432385715 -0.01506948697494472
4001000000.0 0.9998863858960466 -0.015073290918196437 1.5952525869298596e-06 0.00010582104149605764 1.5952525869298587e-06 0.00010582104149605768 0.9998863858960466 -0.015073290918196437
4002000000.0 0.9998863285385023 -0.015077094897198757 1.596411286341169e-06 0.00010587117948257059 1.596411286341166e-06 0.0001058711794825706 0.9998863285385023 -0.015077094897198757
4003000000.0 0.9998862711659378 -0.015080898911974608 1.5975707560297342e-06 0.00010592134298453174 1.5975707560297378e-06 0.00010592134298453169 0.9998862711659378 -0.01508089891197461
4004000000.0 0.9998862137783531 -0.015084702962546917 1.5987309965904589e-06 0.00010597153202153688 1.5987309965904534e-06 0.00010597153202153688 0.9998862137783531 -0.015084702962546917
4005000000.0 0.9998861563757465 -0.015088507048938639 1.5998920086187207e-06 0.00010602174661320009 1.599892008618728e-06 0.00010602174661320017 0.9998861563757465 -0.015088507048938639
4006000000.0 0.9998860989581176 -0.015092311171172745 1.6010537927106156e-06 0.00010607198677915404 1.601053792710613e-06 0.000106071986779154 0.9998860989581176 -0.015092311171172743
4007000000.0 0.9998860415254658 -0.015096115329272223 1.6022163494626888e-06 0.00010612225253904885 1.6022163494626854e-06 0.00010612225253904889 0.9998860415254658 -0.015096115329272223
4008000000.0 0.9998859840777904 -0.015099919523260088 1.6033796794721695e-06 0.00010617254391255364 1.6033796794721703e-06 0.00010617254391255363 0.9998859840777904 -0.015099919523260088
4009000000.0 0.9998859266150902 -0.015103723753159364 1.6045437833368156e-06 0.00010622286091935539 1.6045437833368194e-06 0.00010622286091935543 0.9998859266150902 -0.015103723753159364
4010000000.0 0.9998858691373649 -0.015107528018993103 1.6057086616550035e-06 0.00010627320357915953 1.6057086616550065e-06 0.00010627320357915961 0.9998858691373648 -0.015107528018993104
4011000000.0 0.9998858116446131 -0.015111332320784368 1.6068743150257108e-06 0.00010632357191168983 1.6068743150257137e-06 0.00010632357191168978 0.9998858116446131 -0.015111332320784368
4012000000.0 0.9998857541368347 -0.015115136658556244 1.608040744048464e-06 0.00010637396593668823 1.6080407440484578e-06 0.00010637396593668823 0.9998857541368348 -0.015115136658556244
4013000000.0 0.9998856966140287 -0.015118941032331844 1.6092079493233977e-06 0.00010642438567391529 1.6092079493233943e-06 0.00010642438567391529 0.9998856966140287 -0.015118941032331844
4014000000.0 0.9998856390761943 -0.015122745442134274 1.6103759314512872e-06 0.0001064748311431496 1.610375931451285e-06 0.00010647483114314957 0.9998856390761942 -0.015122745442134274
4015000000.0 0.9998855815233305 -0.015126549887986694 1.6115446910334038e-06 0.00010652530236418859 1.6115446910334016e-06 0.00010652530236418857 0.9998855815233305 -0.015126549887986696
4016000000.0 0.9998855239554371 -0.015130354369912257 1.6127142286716761e-06 0.00010657579935684767 1.6127142286716787e-06 0.00010657579935684768 0.9998855239554372 -0.01513035436991226
4017000000.0 0.9998854663725131 -0.015134158887934158 1.6138845449686514e-06 0.00010662632214096126 1.613884544968648e-06 0.00010662632214096124 0.999885466372513 -0.015134158887934158
4018000000.0 0.9998854087745571 -0.015137963442075573 1.615055640527361e-06 0.00010667687073638147 1.6150556405273596e-06 0.00010667687073638148 0.9998854087745571 -0.015137963442075573
4019000000.0 0.9998853511615692 -0.01514176803235974 1.616227515951582e-06 0.0001067274451629797 1.6162275159515806e-06 0.00010672744516297972 0.9998853511615692 -0.01514176803235974
4020000000.0 0.9998852935335482 -0.01514557265880989 1.617400171845542e-06 0.00010677804544064535 1.6174001718455424e-06 0.00010677804544064537 0.9998852935335483 -0.01514557265880989
4021000000.0 0.9998852358904933 -0.015149377321449279 1.6185736088141698e-06 0.00010682867158928646 1.6185736088141704e-06 0.00010682867158928642 0.9998852358904932 -0.015149377321449277
4022000000.0 0.9998851782324039 -0.015153182020301192 1.6197478274629398e-06 0.00010687932362882981 1.6197478274629377e-06 0.00010687932362882985 0.9998851782324039 -0.015153182020301192
4023000000.0 0.9998851205592794 -0.015156986755388919 1.620922828397933e-06 0.00010693000157922042 1.6209228283979367e-06 0.00010693000157922035 0.9998851205592794 -0.015156986755388919
4024000000.0 0.9998850628711184 -0.015160791526735776 1.622098612225828e-06 0.00010698070546042221 1.62209861222583e-06 0.00010698070546042228 0.9998850628711184 -0.015160791526735775
4025000000.0 0.9998850051679207 -0.015164596334365099 1.6232751795539308e-06 0.00010703143529241776 1.6232751795539257e-06 0.00010703143529241778 0.9998850051679207 -0.015164596334365099
4026000000.0 0.999884947449685 -0.015168401178300239 1.6244525309900822e-06 0.000107082191095208 1.6244525309900793e-06 0.00010708219109520799 0.999884947449685 -0.015168401178300239
4027000000.0 0.9998848897164112 -0.015172206058564579 1.6256306671427891e-06 0.00010713297288881262 1.6256306671427817e-06 0.00010713297288881267 0.9998848897164113 -0.015172206058564579
4028000000.0 0.999884831968098 -0.015176010975181502 1.6268095886211122e-06 0.00010718378069327021 1.6268095886211113e-06 0.00010718378069327018 0.9998848319680981 -0.015176010975181502
4029000000.0 0.999884774204745 -0.01517981592817442 1.6279892960347542e-06 0.00010723461452863772 1.627989296034765e-06 0.00010723461452863772 0.999884774204745 -0.01517981592817442
4030000000.0 0.999884716426351 -0.01518362091756677 1.6291697899940059e-06 0.0001072854744149912 1.6291697899940052e-06 0.00010728547441499119 0.999884716426351 -0.01518362091756677
4031000000.0 0.9998846586329156 -0.015187425943382005 1.6303510711097456e-06 0.00010733636037242518 1.6303510711097502e-06 0.00010733636037242521 0.9998846586329156 -0.015187425943382004
4032000000.0 0.9998846008244376 -0.015191231005643588 1.6315331399934413e-06 0.00010738727242105312 1.6315331399934485e-06 0.00010738727242105313 0.9998846008244376 -0.015191231005643588
4033000000.0 0.9998845430009166 -0.01519503610437501 1.6327159972572354e-06 0.00010743821058100706 1.6327159972572407e-06 0.00010743821058100706 0.9998845430009167 -0.01519503610437501
4034000000.0 0.9998844851623517 -0.015198841239599787 1.6338996435138324e-06 0.00010748917487243813 1.6338996435138288e-06 0.00010748917487243817 0.9998844851623517 -0.015198841239599789
4035000000.0 0.999884427308742 -0.015202646411341444 1.6350840793764894e-06 0.00010754016531551618 1.6350840793764883e-06 0.00010754016531551618 0.999884427308742 -0.015202646411341444
4036000000.0 0.9998843694400869 -0.015206451619623527 1.636269305459151e-06 0.00010759118193043 1.636269305459146e-06 0.00010759118193042996 0.9998843694400869 -0.015206451619623527
4037000000.0 0.9998843115563855 -0.015210256864469605 1.6374553223763566e-06 0.00010764222473738685 1.637455322376357e-06 0.00010764222473738687 0.9998843115563855 -0.015210256864469605
4038000000.0 0.9998842536576371 -0.015214062145903276 1.638642130743208e-06 0.0001076932937566137 1.6386421307432104e-06 0.00010769329375661365 0.9998842536576371 -0.015214062145903276
4039000000.0 0.9998841957438408 -0.015217867463948131 1.6398297311754827e-06 0.00010774438900835556 1.639829731175484e-06 0.00010774438900835556 0.9998841957438408 -0.015217867463948131
4040000000.0 0.9998841378149959 -0.015221672818627808 1.6410181242894821e-06 0.00010779551051287708 1.6410181242894821e-06 0.00010779551051287708 0.9998841378149959 -0.015221672818627808
4041000000.0 0.9998840798711014 -0.015225478209965948 1.6422073107021816e-06 0.0001078466582904615 1.6422073107021907e-06 0.00010784665829046151 0.9998840798711014 -0.015225478209965948
4042000000.0 0.9998840219121569 -0.01522928363798622 1.643397291031202e-06 0.0001078978323614112 1.6433972910312043e-06 0.00010789783236141116 0.9998840219121569 -0.01522928363798622
4043000000.0 0.9998839639381614 -0.015233089102712313 1.6445880658946672e-06 0.00010794903274604754 1.6445880658946693e-06 0.00010794903274604755 0.9998839639381615 -0.015233089102712311
4044000000.0 0.999883905949114 -0.015236894604167923 1.6457796359113925e-06 0.00010800025946471088 1.645779635911388e-06 0.00010800025946471093 0.999883905949114 -0.015236894604167925
4045000000.0 0.9998838479450143 -0.01524070014237679 1.6469720017007809e-06 0.00010805151253776082 1.6469720017007798e-06 0.00010805151253776081 0.9998838479450143 -0.01524070014237679
4046000000.0 0.9998837899258609 -0.015244505717362647 1.6481651638828553e-06 0.00010810279198557578 1.6481651638828596e-06 0.00010810279198557576 0.9998837899258609 -0.015244505717362647
4047000000.0 0.9998837318916535 -0.015248311329149266 1.6493591230782878e-06 0.00010815409782855344 1.6493591230782858e-06 0.00010815409782855348 0.9998837318916535 -0.015248311329149266
4048000000.0 0.9998836738423913 -0.015252116977760428 1.6505538799082667e-06 0.00010820543008711066 1.6505538799082681e-06 0.00010820543008711067 0.9998836738423913 -0.015252116977760428
4049000000.0 0.9998836157780729 -0.015255922663219935 1.6517494349947023e-06 0.00010825678878168328 1.651749434994703e-06 0.00010825678878168338 0.9998836157780729 -0.015255922663219935
4050000000.0 0.9998835576986984 -0.015259728385551617 1.6529457889600741e-06 0.00010830817393272652 1.652945788960079e-06 0.00010830817393272653 0.9998835576986984 -0.015259728385551617
4051000000.0 0.9998834996042665 -0.01526353414477932 1.6541429424275036e-06 0.00010835958556071459 1.6541429424275004e-06 0.00010835958556071462 0.9998834996042665 -0.01526353414477932
4052000000.0 0.9998834414947765 -0.015267339940926905 1.6553408960206763e-06 0.00010841102368614117 1.6553408960206737e-06 0.00010841102368614115 0.9998834414947766 -0.015267339940926905
4053000000.0 0.9998833833702274 -0.015271145774018256 1.656539650363952e-06 0.00010846248832951882 1.656539650363945e-06 0.00010846248832951882 0.9998833833702274 -0.015271145774018256
4054000000.0 0.9998833252306187 -0.01527495164407727 1.6577392060822803e-06 0.00010851397951137969 1.6577392060822858e-06 0.0001085139795113797 0.9998833252306186 -0.01527495164407727
4055000000.0 0.9998832670759495 -0.015278757551127889 1.6589395638012525e-06 0.00010856549725227523 1.6589395638012603e-06 0.00010856549725227523 0.9998832670759495 -0.01527875755112789
4056000000.0 0.999883208906219 -0.015282563495194045 1.660140724147075e-06 0.00010861704157277595 1.6601407241470783e-06 0.00010861704157277594 0.9998832089062191 -0.015282563495194045
4057000000.0 0.9998831507214263 -0.0152863694762997 1.661342687746569e-06 0.00010866861249347174 1.661342687746569e-06 0.00010866861249347178 0.9998831507214263 -0.0152863694762997
4058000000.0 0.9998830925215709 -0.015290175494468847 1.6625454552271793e-06 0.00010872021003497202 1.6625454552271774e-06 0.00010872021003497204 0.9998830925215709 -0.015290175494468847
4059000000.0 0.9998830343066517 -0.015293981549725489 1.6637490272169742e-06 0.00010877183421790556 1.6637490272169738e-06 0.00010877183421790548 0.9998830343066517 -0.015293981549725487
4060000000.0 0.9998829760766679 -0.015297787642093639 1.664953404344657e-06 0.00010882348506292029 1.6649534043446576e-06 0.00010882348506292029 0.9998829760766679 -0.015297787642093639
4061000000.0 0.999882917831619 -0.015301593771597358 1.6661585872395206e-06 0.00010887516259068402 1.666158587239525e-06 0.000108875162590684 0.999882917831619 -0.015301593771597356
4062000000.0 0.9998828595715038 -0.015305399938260699 1.667364576531551e-06 0.00010892686682188339 1.6673645765315442e-06 0.00010892686682188346 0.9998828595715038 -0.015305399938260699
4063000000.0 0.9998828012963218 -0.015309206142107751 1.6685713728512727e-06 0.00010897859777722515 1.6685713728512767e-06 0.00010897859777722514 0.9998828012963217 -0.015309206142107751
4064000000.0 0.9998827430060719 -0.015313012383162619 1.6697789768299183e-06 0.00010903035547743502 1.6697789768299244e-06 0.00010903035547743501 0.9998827430060719 -0.015313012383162619
4065000000.0 0.9998826847007538 -0.01531681866144943 1.6709873890993253e-06 0.00010908213994325857 1.6709873890993257e-06 0.00010908213994325853 0.9998826847007538 -0.015316818661449428
4066000000.0 0.9998826263803661 -0.015320624976992324 1.6721966102919257e-06 0.00010913395119546061 1.672196610291928e-06 0.0001091339511954607 0.9998826263803662 -0.015320624976992324
4067000000.0 0.9998825680449085 -0.015324431329815475 1.6734066410408022e-06 0.00010918578925482613 1.6734066410408018e-06 0.00010918578925482613 0.9998825680449085 -0.015324431329815475
4068000000.0 0.9998825096943798 -0.01532823771994306 1.6746174819796828e-06 0.00010923765414215888 1.6746174819796874e-06 0.00010923765414215883 0.9998825096943798 -0.015328237719943062
4069000000.0 0.9998824513287795 -0.015332044147399295 1.6758291337429155e-06 0.00010928954587828278 1.6758291337429176e-06 0.00010928954587828279 0.9998824513287795 -0.015332044147399295
4070000000.0 0.9998823929481065 -0.015335850612208397 1.6770415969654565e-06 0.00010934146448404114 1.67704159696546e-06 0.0001093414644840411 0.9998823929481065 -0.015335850612208398
4071000000.0 0.9998823345523602 -0.015339657114394618 1.6782548722829466e-06 0.00010939340998029689 1.678254872282945e-06 0.00010939340998029686 0.9998823345523602 -0.015339657114394617
4072000000.0 0.9998822761415399 -0.015343463653982226 1.67946896033162e-06 0.000109445382387933 1.6794689603316194e-06 0.00010944538238793308 0.9998822761415399 -0.015343463653982226
4073000000.0 0.9998822177156446 -0.015347270230995509 1.6806838617483245e-06 0.00010949738172785176 1.6806838617483206e-06 0.00010949738172785175 0.9998822177156446 -0.015347270230995507
4074000000.0 0.9998821592746733 -0.015351076845458769 1.6818995771706098e-06 0.00010954940802097537 1.6818995771706153e-06 0.00010954940802097537 0.9998821592746733 -0.015351076845458769
4075000000.0 0.9998821008186256 -0.01535488349739634 1.6831161072366001e-06 0.00010960146128824546 1.6831161072366006e-06 0.00010960146128824544 0.9998821008186256 -0.015354883497396339
4076000000.0 0.9998820423475004 -0.015358690186832577 1.684333452585098e-06 0.00010965354155062412 1.6843334525850977e-06 0.00010965354155062413 0.9998820423475004 -0.015358690186832577
4077000000.0 0.9998819838612972 -0.01536249691379184 1.6855516138555237e-06 0.00010970564882909251 1.6855516138555216e-06 0.00010970564882909254 0.9998819838612972 -0.01536249691379184
4078000000.0 0.9998819253600149 -0.015366303678298521 1.6867705916879079e-06 0.00010975778314465198 1.6867705916879115e-06 0.00010975778314465202 0.9998819253600149 -0.015366303678298521
4079000000.0 0.9998818668436524 -0.01537011048037703 1.687990386722976e-06 0.0001098099445183236 1.6879903867229753e-06 0.00010980994451832357 0.9998818668436524 -0.01537011048037703
4080000000.0 0.9998818083122097 -0.015373917320051807 1.6892109996020537e-06 0.00010986213297114851 1.6892109996020535e-06 0.00010986213297114852 0.9998818083122097 -0.015373917320051807
4081000000.0 0.9998817497656853 -0.01537772419734729 1.6904324309671245e-06 0.00010991434852418735 1.690432430967117e-06 0.00010991434852418737 0.9998817497656853 -0.01537772419734729
4082000000.0 0.9998816912040789 -0.01538153111228796 1.691654681460783e-06 0.00010996659119852111 1.6916546814607784e-06 0.00010996659119852115 0.9998816912040789 -0.01538153111228796
4083000000.0 0.9998816326273893 -0.015385338064898316 1.6928777517263077e-06 0.00011001886101525045 1.692877751726308e-06 0.0001100188610152504 0.9998816326273893 -0.015385338064898316
4084000000.0 0.9998815740356155 -0.015389145055202856 1.694101642407607e-06 0.00011007115799549592 1.6941016424076029e-06 0.00011007115799549593 0.9998815740356156 -0.015389145055202856
4085000000.0 0.9998815154287571 -0.015392952083226122 1.6953263541492093e-06 0.00011012348216039821 1.6953263541492086e-06 0.00011012348216039823 0.9998815154287571 -0.015392952083226124
4086000000.0 0.9998814568068133 -0.015396759148992672 1.6965518875963083e-06 0.00011017583353111801 1.6965518875963038e-06 0.0001101758335311181 0.9998814568068133 -0.015396759148992672
4087000000.0 0.9998813981697832 -0.01540056625252708 1.6977782433947267e-06 0.00011022821212883617 1.697778243394721e-06 0.00011022821212883625 0.9998813981697832 -0.01540056625252708
4088000000.0 0.9998813395176657 -0.015404373393853943 1.6990054221909413e-06 0.00011028061797475334 1.699005422190943e-06 0.00011028061797475335 0.9998813395176657 -0.015404373393853943
4089000000.0 0.9998812808504602 -0.015408180572997875 1.7002334246321072e-06 0.00011033305109009024 1.7002334246321068e-06 0.0001103330510900903 0.9998812808504602 -0.015408180572997875
4090000000.0 0.999881222168166 -0.015411987789983523 1.7014622513659556e-06 0.00011038551149608795 1.7014622513659535e-06 0.00011038551149608798 0.9998812221681659 -0.015411987789983522
4091000000.0 0.999881163470782 -0.01541579504483553 1.7026919030409343e-06 0.00011043799921400737 1.7026919030409295e-06 0.00011043799921400742 0.999881163470782 -0.01541579504483553
4092000000.0 0.9998811047583076 -0.01541960233757859 1.7039223803060866e-06 0.0001104905142651298 1.7039223803060872e-06 0.0001104905142651298 0.9998811047583077 -0.01541960233757859
4093000000.0 0.999881046030742 -0.0154234096682374 1.705153683811151e-06 0.00011054305667075669 1.7051536838111522e-06 0.00011054305667075664 0.999881046030742 -0.015423409668237402
4094000000.0 0.9998809872880842 -0.015427217036836681 1.7063858142064692e-06 0.00011059562645220944 1.7063858142064703e-06 0.00011059562645220946 0.9998809872880842 -0.015427217036836681
4095000000.0 0.9998809285303335 -0.015431024443401173 1.7076187721430921e-06 0.00011064822363082997 1.7076187721430868e-06 0.00011064822363082997 0.9998809285303334 -0.015431024443401173
4096000000.0 0.9998808697574889 -0.01543483188795564 1.7088525582726488e-06 0.0001107008482279802 1.7088525582726482e-06 0.00011070084822798023 0.9998808697574889 -0.01543483188795564
4097000000.0 0.9998808109695498 -0.015438639370524875 1.7100871732474877e-06 0.00011075350026504265 1.7100871732474853e-06 0.00011075350026504272 0.9998808109695498 -0.015438639370524877
4098000000.0 0.9998807521665154 -0.015442446891133674 1.7113226177205762e-06 0.00011080617976341975 1.7113226177205803e-06 0.00011080617976341976 0.9998807521665154 -0.015442446891133674
4099000000.0 0.9998806933483844 -0.015446254449806863 1.7125588923455334e-06 0.00011085888674453441 1.7125588923455398e-06 0.00011085888674453444 0.9998806933483844 -0.015446254449806863
4100000000.0 0.9998806345151567 -0.015450062046569296 1.7137959977766642e-06 0.00011091162122983007 1.7137959977766648e-06 0.00011091162122983004 0.9998806345151567 -0.015450062046569296
4101000000.0 0.999880575666831 -0.015453869681445838 1.7150339346688792e-06 0.00011096438324077014 1.7150339346688815e-06 0.00011096438324077012 0.9998805756668309 -0.015453869681445838
4102000000.0 0.9998805168034064 -0.015457677354461376 1.7162727036777904e-06 0.00011101717279883869 1.7162727036777875e-06 0.00011101717279883864 0.9998805168034064 -0.015457677354461376
4103000000.0 0.9998804579248823 -0.015461485065640825 1.717512305459657e-06 0.00011106998992554023 1.7175123054596576e-06 0.00011106998992554023 0.9998804579248823 -0.015461485065640825
4104000000.0 0.999880399031258 -0.015465292815009116 1.718752740671358e-06 0.00011112283464239961 1.71875274067136e-06 0.0001111228346423996 0.9998803990312579 -0.015465292815009116
4105000000.0 0.9998803401225324 -0.015469100602591207 1.7199940099704933e-06 0.00011117570697096214 1.719994009970489e-06 0.00011117570697096215 0.9998803401225324 -0.015469100602591207
4106000000.0 0.9998802811987044 -0.015472908428412056 1.7212361140152661e-06 0.00011122860693279359 1.721236114015266e-06 0.00011122860693279353 0.9998802811987044 -0.015472908428412056
